T4A44 000:005.739   SEGGER J-Link V7.22b Log File
T4A44 000:005.830   DLL Compiled: Jun 17 2021 17:22:49
T4A44 000:005.834   Logging started @ 2026-03-11 14:02
T4A44 000:005.838 - 5.840ms
T4A44 000:005.845 JLINK_SetWarnOutHandler(...)
T4A44 000:005.851 - 0.007ms
T4A44 000:005.856 JLINK_OpenEx(...)
T4A44 000:008.613   Firmware: J-Link V9 compiled May  7 2021 16:26:12
T4A44 000:009.342   Firmware: J-Link V9 compiled May  7 2021 16:26:12
T4A44 000:009.488   Decompressing FW timestamp took 112 us
T4A44 000:019.569   Hardware: V9.40
T4A44 000:019.592   S/N: 69401676
T4A44 000:019.602   OEM: SEGGER
T4A44 000:019.609   Feature(s): RDI, GDB, FlashDL, FlashBP, JFlash
T4A44 000:022.013   TELNET listener socket opened on port 19021
T4A44 000:022.115   WEBSRV Starting webserver
T4A44 000:022.255   WEBSRV Webserver running on local port 19080
T4A44 000:022.262 - 16.407ms returns "O.K."
T4A44 000:022.274 JLINK_GetEmuCaps()
T4A44 000:022.279 - 0.006ms returns 0xB9FF7BBF
T4A44 000:022.287 JLINK_TIF_GetAvailable(...)
T4A44 000:022.718 - 0.443ms
T4A44 000:022.735 JLINK_SetErrorOutHandler(...)
T4A44 000:022.740 - 0.006ms
T4A44 000:022.754 JLINK_ExecCommand("ProjectFile = "F:\ROBOCON-FOSU-RoboticsAssociation\2026RC_R1_mechanical_arm\Series_Legged_Robot-main\MDK-ARM\JLinkSettings.ini"", ...). 
T4A44 000:030.969   Ref file found at: D:\Keil_v5-536\ARM\Segger\JLinkDevices.ref
T4A44 000:031.094   XML referenced by ref file: E:\jlink\JLinkDevices.xml
T4A44 000:031.621   E:\jlink\JLinkDevices.xml evaluated successfully.
T4A44 000:043.756   Device "STM32H723VG" selected.
T4A44 000:044.039 - 21.289ms returns 0x00
T4A44 000:045.906 JLINK_ExecCommand("Device = STM32H723VGTx", ...). 
T4A44 000:052.971   Device "STM32H723VG" selected.
T4A44 000:053.333 - 7.418ms returns 0x00
T4A44 000:053.362 JLINK_GetHardwareVersion()
T4A44 000:053.367 - 0.007ms returns 94000
T4A44 000:053.468 JLINK_GetDLLVersion()
T4A44 000:053.474 - 0.008ms returns 72202
T4A44 000:053.479 JLINK_GetOEMString(...)
T4A44 000:053.511 JLINK_GetFirmwareString(...)
T4A44 000:053.522 - 0.013ms
T4A44 000:064.862 JLINK_GetDLLVersion()
T4A44 000:064.876 - 0.016ms returns 72202
T4A44 000:064.882 JLINK_GetCompileDateTime()
T4A44 000:064.886 - 0.005ms
T4A44 000:067.319 JLINK_GetFirmwareString(...)
T4A44 000:067.333 - 0.016ms
T4A44 000:069.035 JLINK_GetHardwareVersion()
T4A44 000:069.049 - 0.015ms returns 94000
T4A44 000:071.299 JLINK_GetSN()
T4A44 000:071.318 - 0.022ms returns 69401676
T4A44 000:073.825 JLINK_GetOEMString(...)
T4A44 000:077.721 JLINK_TIF_Select(JLINKARM_TIF_SWD)
T4A44 000:078.578 - 0.867ms returns 0x00
T4A44 000:078.593 JLINK_HasError()
T4A44 000:078.603 JLINK_SetSpeed(3000)
T4A44 000:078.690 - 0.089ms
T4A44 000:078.697 JLINK_GetId()
T4A44 000:081.760   Found SW-DP with ID 0x6BA02477
T4A44 000:097.863   Found SW-DP with ID 0x6BA02477
T4A44 000:102.785   DPIDR: 0x6BA02477
T4A44 000:105.858   Scanning AP map to find all available APs
T4A44 000:108.865   AP[3]: Stopped AP scan as end of AP map has been reached
T4A44 000:110.472   AP[0]: AHB-AP (IDR: 0x84770001)
T4A44 000:112.083   AP[1]: AHB-AP (IDR: 0x84770001)
T4A44 000:113.690   AP[2]: APB-AP (IDR: 0x54770002)
T4A44 000:115.457   Iterating through AP map to find AHB-AP to use
T4A44 000:118.452   AP[0]: Core found
T4A44 000:120.532   AP[0]: AHB-AP ROM base: 0xE00FE000
T4A44 000:122.811   CPUID register: 0x411FC272. Implementer code: 0x41 (ARM)
T4A44 000:124.641   Found Cortex-M7 r1p2, Little endian.
T4A44 000:226.901   -- Max. mem block: 0x00010E60
T4A44 000:228.067   CPU_ReadMem(4 bytes @ 0xE000EDF0)
T4A44 000:228.769   CPU_ReadMem(4 bytes @ 0xE0002000)
T4A44 000:236.588   FPUnit: 8 code (BP) slots and 0 literal slots
T4A44 000:236.634   CPU_ReadMem(4 bytes @ 0xE000EDFC)
T4A44 000:237.232   CPU_ReadMem(4 bytes @ 0xE0001000)
T4A44 000:237.847   CPU_WriteMem(4 bytes @ 0xE0001000)
T4A44 000:238.461   CPU_ReadMem(4 bytes @ 0xE000ED88)
T4A44 000:239.089   CPU_WriteMem(4 bytes @ 0xE000ED88)
T4A44 000:239.716   CPU_ReadMem(4 bytes @ 0xE000ED88)
T4A44 000:240.321   CPU_WriteMem(4 bytes @ 0xE000ED88)
T4A44 000:246.072   CoreSight components:
T4A44 000:250.190   ROMTbl[0] @ E00FE000
T4A44 000:250.230   CPU_ReadMem(64 bytes @ 0xE00FE000)
T4A44 000:251.429   CPU_ReadMem(32 bytes @ 0xE00FFFE0)
T4A44 000:256.607   ROMTbl[0][0]: E00FF000, CID: B105100D, PID: 000BB4C7 ROM Table
T4A44 000:261.037   ROMTbl[1] @ E00FF000
T4A44 000:261.063   CPU_ReadMem(64 bytes @ 0xE00FF000)
T4A44 000:262.166   CPU_ReadMem(32 bytes @ 0xE000EFE0)
T4A44 000:266.047   ROMTbl[1][0]: E000E000, CID: B105E00D, PID: 000BB00C SCS-M7
T4A44 000:266.075   CPU_ReadMem(32 bytes @ 0xE0001FE0)
T4A44 000:269.965   ROMTbl[1][1]: E0001000, CID: B105E00D, PID: 000BB002 DWT
T4A44 000:269.989   CPU_ReadMem(32 bytes @ 0xE0002FE0)
T4A44 000:274.271   ROMTbl[1][2]: E0002000, CID: B105E00D, PID: 000BB00E FPB-M7
T4A44 000:274.290   CPU_ReadMem(32 bytes @ 0xE0000FE0)
T4A44 000:277.845   ROMTbl[1][3]: E0000000, CID: B105E00D, PID: 000BB001 ITM
T4A44 000:277.865   CPU_ReadMem(32 bytes @ 0xE0041FE0)
T4A44 000:280.658   ROMTbl[0][1]: E0041000, CID: B105900D, PID: 001BB975 ETM-M7
T4A44 000:280.677   CPU_ReadMem(32 bytes @ 0xE0043FE0)
T4A44 000:283.241   ROMTbl[0][2]: E0043000, CID: B105900D, PID: 004BB906 CTI
T4A44 000:283.266   CPU_ReadMem(4 bytes @ 0xE000ED78)
T4A44 000:285.579   Cache: Separate I- and D-cache.
T4A44 000:285.593   CPU_WriteMem(4 bytes @ 0xE000ED84)
T4A44 000:286.054   CPU_ReadMem(4 bytes @ 0xE000ED80)
T4A44 000:288.267   I-Cache L1: 32 KiB, 512 Sets, 32 Bytes/Line, 2-Way
T4A44 000:288.289   CPU_WriteMem(4 bytes @ 0xE000ED84)
T4A44 000:288.742   CPU_ReadMem(4 bytes @ 0xE000ED80)
T4A44 000:290.925   D-Cache L1: 32 KiB, 256 Sets, 32 Bytes/Line, 4-Way
T4A44 000:291.203 - 212.512ms returns 0x6BA02477
T4A44 000:291.226 JLINK_GetDLLVersion()
T4A44 000:291.233 - 0.010ms returns 72202
T4A44 000:291.241 JLINK_CORE_GetFound()
T4A44 000:291.246 - 0.007ms returns 0xE0100FF
T4A44 000:291.253 JLINK_GetDebugInfo(0x100 = JLINKARM_ROM_TABLE_ADDR_INDEX)
T4A44 000:291.259   Value=0xE00FE000
T4A44 000:291.266 - 0.016ms returns 0
T4A44 000:293.465 JLINK_GetDebugInfo(0x100 = JLINKARM_ROM_TABLE_ADDR_INDEX)
T4A44 000:293.480   Value=0xE00FE000
T4A44 000:293.486 - 0.023ms returns 0
T4A44 000:293.491 JLINK_GetDebugInfo(0x101 = JLINKARM_DEBUG_INFO_ETM_ADDR_INDEX)
T4A44 000:293.496   Value=0xE0041000
T4A44 000:293.501 - 0.012ms returns 0
T4A44 000:293.510 JLINK_ReadMemEx(0xE0041FD0, 0x20 Bytes, Flags = 0x02000004)
T4A44 000:293.526   CPU_ReadMem(32 bytes @ 0xE0041FD0)
T4A44 000:294.165   Data:  04 00 00 00 00 00 00 00 00 00 00 00 00 00 00 00 ...
T4A44 000:294.172 - 0.664ms returns 32 (0x20)
T4A44 000:294.178 JLINK_GetDebugInfo(0x102 = JLINKARM_DEBUG_INFO_MTB_ADDR_INDEX)
T4A44 000:294.182   Value=0x00000000
T4A44 000:294.188 - 0.011ms returns 0
T4A44 000:294.193 JLINK_GetDebugInfo(0x103 = JLINKARM_DEBUG_INFO_TPIU_ADDR_INDEX)
T4A44 000:294.197   Value=0x00000000
T4A44 000:294.202 - 0.011ms returns 0
T4A44 000:294.207 JLINK_ReadMemEx(0xE0040FF0, 0x10 Bytes, Flags = 0x02000004)
T4A44 000:294.214   CPU_ReadMem(16 bytes @ 0xE0040FF0)
T4A44 000:294.806   Data:  00 00 00 00 00 00 00 00 00 00 00 00 00 00 00 00
T4A44 000:294.812 - 0.607ms returns 16 (0x10)
T4A44 000:294.823 JLINK_GetDebugInfo(0x104 = JLINKARM_DEBUG_INFO_ITM_ADDR_INDEX)
T4A44 000:294.873   Value=0xE0000000
T4A44 000:294.885 - 0.063ms returns 0
T4A44 000:294.889 JLINK_GetDebugInfo(0x105 = JLINKARM_DEBUG_INFO_DWT_ADDR_INDEX)
T4A44 000:294.893   Value=0xE0001000
T4A44 000:294.901 - 0.013ms returns 0
T4A44 000:294.906 JLINK_GetDebugInfo(0x106 = JLINKARM_DEBUG_INFO_FPB_ADDR_INDEX)
T4A44 000:294.910   Value=0xE0002000
T4A44 000:294.915 - 0.011ms returns 0
T4A44 000:294.920 JLINK_GetDebugInfo(0x107 = JLINKARM_DEBUG_INFO_NVIC_ADDR_INDEX)
T4A44 000:294.924   Value=0xE000E000
T4A44 000:294.929 - 0.011ms returns 0
T4A44 000:294.934 JLINK_GetDebugInfo(0x10C = JLINKARM_DEBUG_INFO_DBG_ADDR_INDEX)
T4A44 000:294.938   Value=0xE000EDF0
T4A44 000:294.944 - 0.011ms returns 0
T4A44 000:294.948 JLINK_GetDebugInfo(0x01 = Unknown)
T4A44 000:294.952   Value=0x00000001
T4A44 000:294.962 - 0.015ms returns 0
T4A44 000:294.967 JLINK_ReadMemU32(0xE000ED00, 0x1 Items)
T4A44 000:294.974   CPU_ReadMem(4 bytes @ 0xE000ED00)
T4A44 000:296.403   Data:  72 C2 1F 41
T4A44 000:296.424   Debug reg: CPUID
T4A44 000:296.430 - 1.464ms returns 1 (0x1)
T4A44 000:296.436 JLINK_GetDebugInfo(0x10F = JLINKARM_DEBUG_INFO_HAS_CORTEX_M_SECURITY_EXT_INDEX)
T4A44 000:296.441   Value=0x00000000
T4A44 000:296.447 - 0.012ms returns 0
T4A44 000:296.452 JLINK_HasError()
T4A44 000:296.469 JLINK_SetResetType(JLINKARM_CM3_RESET_TYPE_NORMAL)
T4A44 000:296.474 - 0.006ms returns JLINKARM_CM3_RESET_TYPE_NORMAL
T4A44 000:296.479 JLINK_Reset()
T4A44 000:296.492   CPU is running
T4A44 000:296.500   CPU_WriteMem(4 bytes @ 0xE000EDF0)
T4A44 000:296.919   CPU is running
T4A44 000:296.936   CPU_WriteMem(4 bytes @ 0xE000EDFC)
T4A44 000:299.153   Reset: Halt core after reset via DEMCR.VC_CORERESET.
T4A44 000:301.503   Reset: Reset device via AIRCR.SYSRESETREQ.
T4A44 000:301.519   CPU is running
T4A44 000:301.527   CPU_WriteMem(4 bytes @ 0xE000ED0C)
T4A44 000:355.037   CPU_ReadMem(4 bytes @ 0xE000EDF0)
T4A44 000:355.599   CPU_ReadMem(4 bytes @ 0xE000EDF0)
T4A44 000:356.096   CPU is running
T4A44 000:356.131   CPU_WriteMem(4 bytes @ 0xE000EDF0)
T4A44 000:356.742   CPU is running
T4A44 000:356.778   CPU_WriteMem(4 bytes @ 0xE000EDFC)
T4A44 000:362.747   CPU_ReadMem(4 bytes @ 0xE000EDF0)
T4A44 000:367.657   CPU_WriteMem(4 bytes @ 0xE0002000)
T4A44 000:368.317   CPU_ReadMem(4 bytes @ 0xE000EDFC)
T4A44 000:368.985   CPU_ReadMem(4 bytes @ 0xE0001000)
T4A44 000:369.765 - 73.325ms
T4A44 000:369.931 JLINK_Halt()
T4A44 000:369.947 - 0.022ms returns 0x00
T4A44 000:369.965 JLINK_ReadMemU32(0xE000EDF0, 0x1 Items)
T4A44 000:370.001   CPU_ReadMem(4 bytes @ 0xE000EDF0)
T4A44 000:370.682   Data:  03 00 03 00
T4A44 000:370.735   Debug reg: DHCSR
T4A44 000:370.754 - 0.795ms returns 1 (0x1)
T4A44 000:370.800 JLINK_WriteU32_64(0xE000EDF0, 0xA05F0003)
T4A44 000:370.828   Debug reg: DHCSR
T4A44 000:371.518   CPU_WriteMem(4 bytes @ 0xE000EDF0)
T4A44 000:372.276 - 1.512ms returns 0 (0x00000000)
T4A44 000:372.348 JLINK_WriteU32_64(0xE000EDFC, 0x01000000)
T4A44 000:372.363   Debug reg: DEMCR
T4A44 000:372.395   CPU_WriteMem(4 bytes @ 0xE000EDFC)
T4A44 000:373.135 - 0.822ms returns 0 (0x00000000)
T4A44 000:388.350 JLINK_GetHWStatus(...)
T4A44 000:388.862 - 0.524ms returns 0
T4A44 000:396.119 JLINK_GetNumBPUnits(Type = 0xFFFFFF00)
T4A44 000:396.133 - 0.017ms returns 0x08
T4A44 000:396.139 JLINK_GetNumBPUnits(Type = 0xF0)
T4A44 000:396.143 - 0.006ms returns 0x2000
T4A44 000:396.148 JLINK_GetNumWPUnits()
T4A44 000:396.152 - 0.005ms returns 4
T4A44 000:404.271 JLINK_GetSpeed()
T4A44 000:404.285 - 0.015ms returns 3000
T4A44 000:408.476 JLINK_ReadMemU32(0xE000E004, 0x1 Items)
T4A44 000:408.499   CPU_ReadMem(4 bytes @ 0xE000E004)
T4A44 000:409.173   Data:  05 00 00 00
T4A44 000:409.205 - 0.739ms returns 1 (0x1)
T4A44 000:409.224 JLINK_ReadMemU32(0xE000E004, 0x1 Items)
T4A44 000:409.234   CPU_ReadMem(4 bytes @ 0xE000E004)
T4A44 000:409.778   Data:  05 00 00 00
T4A44 000:409.793 - 0.570ms returns 1 (0x1)
T4A44 000:409.800 JLINK_WriteMemEx(0xE0001000, 0x0000001C Bytes, Flags = 0x02000004)
T4A44 000:409.805   Data:  01 00 00 00 00 00 00 00 00 00 00 00 00 00 00 00 ...
T4A44 000:409.818   CPU_WriteMem(28 bytes @ 0xE0001000)
T4A44 000:410.632 - 0.842ms returns 0x1C
T4A44 000:410.655 JLINK_Halt()
T4A44 000:410.661 - 0.009ms returns 0x00
T4A44 000:410.668 JLINK_IsHalted()
T4A44 000:410.673 - 0.006ms returns TRUE
T4A44 000:413.590 JLINK_WriteMem(0x20000000, 0x250 Bytes, ...)
T4A44 000:413.599   Data:  00 BE 0A E0 0D 78 2D 06 68 40 08 24 40 00 00 D3 ...
T4A44 000:413.801   CPU_WriteMem(592 bytes @ 0x20000000)
T4A44 000:418.758 - 5.183ms returns 0x250
T4A44 000:418.814 JLINK_HasError()
T4A44 000:418.822 JLINK_WriteReg(R0, 0x08000000)
T4A44 000:418.830 - 0.010ms returns 0
T4A44 000:418.836 JLINK_WriteReg(R1, 0x016E3600)
T4A44 000:418.840 - 0.007ms returns 0
T4A44 000:418.846 JLINK_WriteReg(R2, 0x00000001)
T4A44 000:418.854 - 0.012ms returns 0
T4A44 000:418.861 JLINK_WriteReg(R3, 0x00000000)
T4A44 000:418.866 - 0.006ms returns 0
T4A44 000:418.871 JLINK_WriteReg(R4, 0x00000000)
T4A44 000:418.876 - 0.006ms returns 0
T4A44 000:418.881 JLINK_WriteReg(R5, 0x00000000)
T4A44 000:418.886 - 0.006ms returns 0
T4A44 000:418.891 JLINK_WriteReg(R6, 0x00000000)
T4A44 000:418.895 - 0.006ms returns 0
T4A44 000:418.900 JLINK_WriteReg(R7, 0x00000000)
T4A44 000:418.905 - 0.006ms returns 0
T4A44 000:418.910 JLINK_WriteReg(R8, 0x00000000)
T4A44 000:418.920 - 0.011ms returns 0
T4A44 000:418.925 JLINK_WriteReg(R9, 0x2000024C)
T4A44 000:418.930 - 0.006ms returns 0
T4A44 000:418.935 JLINK_WriteReg(R10, 0x00000000)
T4A44 000:418.940 - 0.006ms returns 0
T4A44 000:418.945 JLINK_WriteReg(R11, 0x00000000)
T4A44 000:418.949 - 0.006ms returns 0
T4A44 000:418.955 JLINK_WriteReg(R12, 0x00000000)
T4A44 000:418.959 - 0.006ms returns 0
T4A44 000:418.964 JLINK_WriteReg(R13 (SP), 0x20008000)
T4A44 000:418.970 - 0.007ms returns 0
T4A44 000:418.975 JLINK_WriteReg(R14, 0x20000001)
T4A44 000:418.980 - 0.006ms returns 0
T4A44 000:418.985 JLINK_WriteReg(R15 (PC), 0x20000038)
T4A44 000:418.990 - 0.007ms returns 0
T4A44 000:418.995 JLINK_WriteReg(XPSR, 0x01000000)
T4A44 000:419.000 - 0.006ms returns 0
T4A44 000:419.005 JLINK_WriteReg(MSP, 0x20008000)
T4A44 000:419.016 - 0.013ms returns 0
T4A44 000:419.021 JLINK_WriteReg(PSP, 0x20008000)
T4A44 000:419.026 - 0.006ms returns 0
T4A44 000:419.031 JLINK_WriteReg(CFBP, 0x00000000)
T4A44 000:419.035 - 0.006ms returns 0
T4A44 000:419.041 JLINK_SetBPEx(Addr = 0x20000000, Type = 0xFFFFFFF2)
T4A44 000:419.047 - 0.008ms returns 0x00000001
T4A44 000:419.052 JLINK_Go()
T4A44 000:419.061   CPU_WriteMem(4 bytes @ 0xE0002000)
T4A44 000:419.695   CPU_ReadMem(4 bytes @ 0xE0001000)
T4A44 000:420.241   CPU_WriteMem(4 bytes @ 0xE0002008)
T4A44 000:420.261   CPU_WriteMem(4 bytes @ 0xE000200C)
T4A44 000:420.268   CPU_WriteMem(4 bytes @ 0xE0002010)
T4A44 000:420.275   CPU_WriteMem(4 bytes @ 0xE0002014)
T4A44 000:420.282   CPU_WriteMem(4 bytes @ 0xE0002018)
T4A44 000:420.289   CPU_WriteMem(4 bytes @ 0xE000201C)
T4A44 000:420.296   CPU_WriteMem(4 bytes @ 0xE0002020)
T4A44 000:420.303   CPU_WriteMem(4 bytes @ 0xE0002024)
T4A44 000:422.744   CPU_WriteMem(4 bytes @ 0xE0001004)
T4A44 000:427.677 - 8.649ms
T4A44 000:427.731 JLINK_IsHalted()
T4A44 000:431.898 - 4.203ms returns TRUE
T4A44 000:431.963 JLINK_ReadReg(R15 (PC))
T4A44 000:431.978 - 0.019ms returns 0x20000000
T4A44 000:431.989 JLINK_ClrBPEx(BPHandle = 0x00000001)
T4A44 000:432.000 - 0.014ms returns 0x00
T4A44 000:432.166 JLINK_ReadReg(R0)
T4A44 000:432.208 - 0.046ms returns 0x00000000
T4A44 000:432.855 JLINK_HasError()
T4A44 000:432.881 JLINK_WriteReg(R0, 0x08000000)
T4A44 000:432.896 - 0.019ms returns 0
T4A44 000:432.907 JLINK_WriteReg(R1, 0x00020000)
T4A44 000:432.917 - 0.014ms returns 0
T4A44 000:432.928 JLINK_WriteReg(R2, 0x000000FF)
T4A44 000:432.937 - 0.013ms returns 0
T4A44 000:432.948 JLINK_WriteReg(R3, 0x00000000)
T4A44 000:432.957 - 0.013ms returns 0
T4A44 000:432.967 JLINK_WriteReg(R4, 0x00000000)
T4A44 000:432.976 - 0.013ms returns 0
T4A44 000:432.987 JLINK_WriteReg(R5, 0x00000000)
T4A44 000:432.996 - 0.013ms returns 0
T4A44 000:433.007 JLINK_WriteReg(R6, 0x00000000)
T4A44 000:433.017 - 0.013ms returns 0
T4A44 000:433.027 JLINK_WriteReg(R7, 0x00000000)
T4A44 000:433.036 - 0.013ms returns 0
T4A44 000:433.046 JLINK_WriteReg(R8, 0x00000000)
T4A44 000:433.056 - 0.013ms returns 0
T4A44 000:433.066 JLINK_WriteReg(R9, 0x2000024C)
T4A44 000:433.075 - 0.013ms returns 0
T4A44 000:433.086 JLINK_WriteReg(R10, 0x00000000)
T4A44 000:433.095 - 0.013ms returns 0
T4A44 000:433.106 JLINK_WriteReg(R11, 0x00000000)
T4A44 000:433.115 - 0.013ms returns 0
T4A44 000:433.126 JLINK_WriteReg(R12, 0x00000000)
T4A44 000:433.135 - 0.013ms returns 0
T4A44 000:433.145 JLINK_WriteReg(R13 (SP), 0x20008000)
T4A44 000:433.156 - 0.014ms returns 0
T4A44 000:433.166 JLINK_WriteReg(R14, 0x20000001)
T4A44 000:433.175 - 0.099ms returns 0
T4A44 000:433.277 JLINK_WriteReg(R15 (PC), 0x20000020)
T4A44 000:433.287 - 0.014ms returns 0
T4A44 000:433.298 JLINK_WriteReg(XPSR, 0x01000000)
T4A44 000:433.307 - 0.013ms returns 0
T4A44 000:433.318 JLINK_WriteReg(MSP, 0x20008000)
T4A44 000:433.327 - 0.013ms returns 0
T4A44 000:433.337 JLINK_WriteReg(PSP, 0x20008000)
T4A44 000:433.347 - 0.014ms returns 0
T4A44 000:433.357 JLINK_WriteReg(CFBP, 0x00000000)
T4A44 000:433.367 - 0.013ms returns 0
T4A44 000:433.377 JLINK_SetBPEx(Addr = 0x20000000, Type = 0xFFFFFFF2)
T4A44 000:433.389 - 0.016ms returns 0x00000002
T4A44 000:433.400 JLINK_Go()
T4A44 000:433.418   CPU_WriteMem(4 bytes @ 0xE0002000)
T4A44 000:433.995   CPU_ReadMem(4 bytes @ 0xE0001000)
T4A44 000:438.707 - 5.333ms
T4A44 000:438.743 JLINK_IsHalted()
T4A44 000:439.332 - 0.610ms returns FALSE
T4A44 000:439.363 JLINK_HasError()
T4A44 000:493.168 JLINK_IsHalted()
T4A44 000:497.203 - 4.049ms returns TRUE
T4A44 000:497.223 JLINK_ReadReg(R15 (PC))
T4A44 000:497.231 - 0.010ms returns 0x20000000
T4A44 000:497.238 JLINK_ClrBPEx(BPHandle = 0x00000002)
T4A44 000:497.244 - 0.008ms returns 0x00
T4A44 000:497.249 JLINK_ReadReg(R0)
T4A44 000:497.255 - 0.007ms returns 0x00000000
T4A44 000:497.814 JLINK_HasError()
T4A44 000:497.829 JLINK_WriteReg(R0, 0x00000001)
T4A44 000:497.838 - 0.011ms returns 0
T4A44 000:497.845 JLINK_WriteReg(R1, 0x00020000)
T4A44 000:497.851 - 0.008ms returns 0
T4A44 000:497.857 JLINK_WriteReg(R2, 0x000000FF)
T4A44 000:497.862 - 0.008ms returns 0
T4A44 000:497.868 JLINK_WriteReg(R3, 0x00000000)
T4A44 000:497.874 - 0.007ms returns 0
T4A44 000:497.880 JLINK_WriteReg(R4, 0x00000000)
T4A44 000:497.885 - 0.008ms returns 0
T4A44 000:497.891 JLINK_WriteReg(R5, 0x00000000)
T4A44 000:497.896 - 0.007ms returns 0
T4A44 000:497.902 JLINK_WriteReg(R6, 0x00000000)
T4A44 000:497.908 - 0.008ms returns 0
T4A44 000:497.914 JLINK_WriteReg(R7, 0x00000000)
T4A44 000:497.920 - 0.007ms returns 0
T4A44 000:497.926 JLINK_WriteReg(R8, 0x00000000)
T4A44 000:497.931 - 0.007ms returns 0
T4A44 000:497.937 JLINK_WriteReg(R9, 0x2000024C)
T4A44 000:497.942 - 0.007ms returns 0
T4A44 000:497.948 JLINK_WriteReg(R10, 0x00000000)
T4A44 000:497.954 - 0.008ms returns 0
T4A44 000:497.960 JLINK_WriteReg(R11, 0x00000000)
T4A44 000:497.965 - 0.008ms returns 0
T4A44 000:497.971 JLINK_WriteReg(R12, 0x00000000)
T4A44 000:497.977 - 0.008ms returns 0
T4A44 000:497.983 JLINK_WriteReg(R13 (SP), 0x20008000)
T4A44 000:497.989 - 0.008ms returns 0
T4A44 000:497.995 JLINK_WriteReg(R14, 0x20000001)
T4A44 000:498.001 - 0.007ms returns 0
T4A44 000:498.007 JLINK_WriteReg(R15 (PC), 0x20000060)
T4A44 000:498.012 - 0.008ms returns 0
T4A44 000:498.018 JLINK_WriteReg(XPSR, 0x01000000)
T4A44 000:498.024 - 0.008ms returns 0
T4A44 000:498.030 JLINK_WriteReg(MSP, 0x20008000)
T4A44 000:498.035 - 0.008ms returns 0
T4A44 000:498.042 JLINK_WriteReg(PSP, 0x20008000)
T4A44 000:498.047 - 0.008ms returns 0
T4A44 000:498.053 JLINK_WriteReg(CFBP, 0x00000000)
T4A44 000:498.059 - 0.008ms returns 0
T4A44 000:498.066 JLINK_SetBPEx(Addr = 0x20000000, Type = 0xFFFFFFF2)
T4A44 000:498.073 - 0.009ms returns 0x00000003
T4A44 000:498.080 JLINK_Go()
T4A44 000:498.091   CPU_WriteMem(4 bytes @ 0xE0002000)
T4A44 000:498.703   CPU_ReadMem(4 bytes @ 0xE0001000)
T4A44 000:503.585 - 5.553ms
T4A44 000:503.641 JLINK_IsHalted()
T4A44 000:507.703 - 4.083ms returns TRUE
T4A44 000:507.780 JLINK_ReadReg(R15 (PC))
T4A44 000:507.793 - 0.016ms returns 0x20000000
T4A44 000:507.803 JLINK_ClrBPEx(BPHandle = 0x00000003)
T4A44 000:507.812 - 0.013ms returns 0x00
T4A44 000:507.822 JLINK_ReadReg(R0)
T4A44 000:507.830 - 0.011ms returns 0x00000000
T4A44 000:571.931 JLINK_WriteMem(0x20000000, 0x250 Bytes, ...)
T4A44 000:571.957   Data:  00 BE 0A E0 0D 78 2D 06 68 40 08 24 40 00 00 D3 ...
T4A44 000:572.000   CPU_WriteMem(592 bytes @ 0x20000000)
T4A44 000:576.837 - 4.942ms returns 0x250
T4A44 000:576.947 JLINK_HasError()
T4A44 000:576.962 JLINK_WriteReg(R0, 0x08000000)
T4A44 000:576.980 - 0.022ms returns 0
T4A44 000:576.990 JLINK_WriteReg(R1, 0x016E3600)
T4A44 000:577.012 - 0.025ms returns 0
T4A44 000:577.021 JLINK_WriteReg(R2, 0x00000002)
T4A44 000:577.029 - 0.011ms returns 0
T4A44 000:577.038 JLINK_WriteReg(R3, 0x00000000)
T4A44 000:577.046 - 0.011ms returns 0
T4A44 000:577.055 JLINK_WriteReg(R4, 0x00000000)
T4A44 000:577.063 - 0.011ms returns 0
T4A44 000:577.072 JLINK_WriteReg(R5, 0x00000000)
T4A44 000:577.080 - 0.011ms returns 0
T4A44 000:577.089 JLINK_WriteReg(R6, 0x00000000)
T4A44 000:577.097 - 0.011ms returns 0
T4A44 000:577.106 JLINK_WriteReg(R7, 0x00000000)
T4A44 000:577.113 - 0.011ms returns 0
T4A44 000:577.122 JLINK_WriteReg(R8, 0x00000000)
T4A44 000:577.131 - 0.012ms returns 0
T4A44 000:577.140 JLINK_WriteReg(R9, 0x2000024C)
T4A44 000:577.148 - 0.011ms returns 0
T4A44 000:577.157 JLINK_WriteReg(R10, 0x00000000)
T4A44 000:577.165 - 0.011ms returns 0
T4A44 000:577.174 JLINK_WriteReg(R11, 0x00000000)
T4A44 000:577.182 - 0.011ms returns 0
T4A44 000:577.192 JLINK_WriteReg(R12, 0x00000000)
T4A44 000:577.200 - 0.011ms returns 0
T4A44 000:577.209 JLINK_WriteReg(R13 (SP), 0x20008000)
T4A44 000:577.218 - 0.012ms returns 0
T4A44 000:577.227 JLINK_WriteReg(R14, 0x20000001)
T4A44 000:577.235 - 0.012ms returns 0
T4A44 000:577.244 JLINK_WriteReg(R15 (PC), 0x20000038)
T4A44 000:577.252 - 0.012ms returns 0
T4A44 000:577.261 JLINK_WriteReg(XPSR, 0x01000000)
T4A44 000:577.270 - 0.011ms returns 0
T4A44 000:577.278 JLINK_WriteReg(MSP, 0x20008000)
T4A44 000:577.286 - 0.070ms returns 0
T4A44 000:577.354 JLINK_WriteReg(PSP, 0x20008000)
T4A44 000:577.362 - 0.011ms returns 0
T4A44 000:577.371 JLINK_WriteReg(CFBP, 0x00000000)
T4A44 000:577.379 - 0.011ms returns 0
T4A44 000:577.389 JLINK_SetBPEx(Addr = 0x20000000, Type = 0xFFFFFFF2)
T4A44 000:577.400 - 0.014ms returns 0x00000004
T4A44 000:577.410 JLINK_Go()
T4A44 000:577.425   CPU_WriteMem(4 bytes @ 0xE0002000)
T4A44 000:577.984   CPU_ReadMem(4 bytes @ 0xE0001000)
T4A44 000:582.919 - 5.551ms
T4A44 000:582.974 JLINK_IsHalted()
T4A44 000:587.208 - 4.282ms returns TRUE
T4A44 000:587.525 JLINK_ReadReg(R15 (PC))
T4A44 000:587.589 - 0.069ms returns 0x20000000
T4A44 000:587.604 JLINK_ClrBPEx(BPHandle = 0x00000004)
T4A44 000:587.617 - 0.018ms returns 0x00
T4A44 000:587.630 JLINK_ReadReg(R0)
T4A44 000:587.641 - 0.016ms returns 0x00000000
T4A44 000:588.429 JLINK_WriteMem(0x20000250, 0x1B0 Bytes, ...)
T4A44 000:588.455   Data:  88 97 00 24 E1 02 00 08 41 E6 00 08 81 CF 00 08 ...
T4A44 000:588.494   CPU_WriteMem(432 bytes @ 0x20000250)
T4A44 000:592.353 - 3.950ms returns 0x1B0
T4A44 000:592.392 JLINK_WriteMem(0x20000400, 0x250 Bytes, ...)
T4A44 000:592.403   Data:  FB 02 00 08 FB 02 00 08 FB 02 00 08 FB 02 00 08 ...
T4A44 000:592.430   CPU_WriteMem(592 bytes @ 0x20000400)
T4A44 000:597.401 - 5.039ms returns 0x250
T4A44 000:597.445 JLINK_HasError()
T4A44 000:597.459 JLINK_WriteReg(R0, 0x08000000)
T4A44 000:597.476 - 0.022ms returns 0
T4A44 000:597.488 JLINK_WriteReg(R1, 0x00000400)
T4A44 000:597.498 - 0.014ms returns 0
T4A44 000:597.508 JLINK_WriteReg(R2, 0x20000250)
T4A44 000:597.517 - 0.013ms returns 0
T4A44 000:597.528 JLINK_WriteReg(R3, 0x00000000)
T4A44 000:597.537 - 0.013ms returns 0
T4A44 000:597.548 JLINK_WriteReg(R4, 0x00000000)
T4A44 000:597.557 - 0.013ms returns 0
T4A44 000:597.567 JLINK_WriteReg(R5, 0x00000000)
T4A44 000:597.576 - 0.013ms returns 0
T4A44 000:597.587 JLINK_WriteReg(R6, 0x00000000)
T4A44 000:597.596 - 0.014ms returns 0
T4A44 000:597.607 JLINK_WriteReg(R7, 0x00000000)
T4A44 000:597.616 - 0.013ms returns 0
T4A44 000:597.626 JLINK_WriteReg(R8, 0x00000000)
T4A44 000:597.636 - 0.013ms returns 0
T4A44 000:597.646 JLINK_WriteReg(R9, 0x2000024C)
T4A44 000:597.655 - 0.013ms returns 0
T4A44 000:597.665 JLINK_WriteReg(R10, 0x00000000)
T4A44 000:597.675 - 0.013ms returns 0
T4A44 000:597.685 JLINK_WriteReg(R11, 0x00000000)
T4A44 000:597.694 - 0.013ms returns 0
T4A44 000:597.704 JLINK_WriteReg(R12, 0x00000000)
T4A44 000:597.713 - 0.013ms returns 0
T4A44 000:597.724 JLINK_WriteReg(R13 (SP), 0x20008000)
T4A44 000:597.734 - 0.023ms returns 0
T4A44 000:597.758 JLINK_WriteReg(R14, 0x20000001)
T4A44 000:597.768 - 0.013ms returns 0
T4A44 000:597.778 JLINK_WriteReg(R15 (PC), 0x2000014C)
T4A44 000:597.788 - 0.013ms returns 0
T4A44 000:597.798 JLINK_WriteReg(XPSR, 0x01000000)
T4A44 000:597.807 - 0.013ms returns 0
T4A44 000:597.818 JLINK_WriteReg(MSP, 0x20008000)
T4A44 000:597.827 - 0.013ms returns 0
T4A44 000:597.837 JLINK_WriteReg(PSP, 0x20008000)
T4A44 000:597.847 - 0.014ms returns 0
T4A44 000:597.859 JLINK_WriteReg(CFBP, 0x00000000)
T4A44 000:597.869 - 0.014ms returns 0
T4A44 000:597.880 JLINK_SetBPEx(Addr = 0x20000000, Type = 0xFFFFFFF2)
T4A44 000:597.893 - 0.017ms returns 0x00000005
T4A44 000:597.904 JLINK_Go()
T4A44 000:597.921   CPU_WriteMem(4 bytes @ 0xE0002000)
T4A44 000:598.559   CPU_ReadMem(4 bytes @ 0xE0001000)
T4A44 000:603.677 - 5.809ms
T4A44 000:603.731 JLINK_IsHalted()
T4A44 000:604.425 - 0.733ms returns FALSE
T4A44 000:604.482 JLINK_HasError()
T4A44 000:622.196 JLINK_IsHalted()
T4A44 000:626.066 - 3.891ms returns TRUE
T4A44 000:626.100 JLINK_ReadReg(R15 (PC))
T4A44 000:626.111 - 0.014ms returns 0x20000000
T4A44 000:626.119 JLINK_ClrBPEx(BPHandle = 0x00000005)
T4A44 000:626.125 - 0.009ms returns 0x00
T4A44 000:626.132 JLINK_ReadReg(R0)
T4A44 000:626.138 - 0.008ms returns 0x00000000
T4A44 000:626.726 JLINK_WriteMem(0x20000250, 0x1B0 Bytes, ...)
T4A44 000:626.743   Data:  AC 42 F6 D3 FF F7 66 FF 48 6F 01 08 68 6F 01 08 ...
T4A44 000:626.770   CPU_WriteMem(432 bytes @ 0x20000250)
T4A44 000:630.615 - 3.925ms returns 0x1B0
T4A44 000:630.663 JLINK_WriteMem(0x20000400, 0x250 Bytes, ...)
T4A44 000:630.673   Data:  C0 0A 40 F2 30 00 C2 F2 00 40 90 ED 00 1A 20 EE ...
T4A44 000:630.697   CPU_WriteMem(592 bytes @ 0x20000400)
T4A44 000:635.518 - 4.884ms returns 0x250
T4A44 000:635.561 JLINK_HasError()
T4A44 000:635.575 JLINK_WriteReg(R0, 0x08000400)
T4A44 000:635.592 - 0.022ms returns 0
T4A44 000:635.604 JLINK_WriteReg(R1, 0x00000400)
T4A44 000:635.615 - 0.015ms returns 0
T4A44 000:635.625 JLINK_WriteReg(R2, 0x20000250)
T4A44 000:635.635 - 0.014ms returns 0
T4A44 000:635.646 JLINK_WriteReg(R3, 0x00000000)
T4A44 000:635.656 - 0.014ms returns 0
T4A44 000:635.668 JLINK_WriteReg(R4, 0x00000000)
T4A44 000:635.679 - 0.015ms returns 0
T4A44 000:635.690 JLINK_WriteReg(R5, 0x00000000)
T4A44 000:635.701 - 0.015ms returns 0
T4A44 000:635.712 JLINK_WriteReg(R6, 0x00000000)
T4A44 000:635.723 - 0.015ms returns 0
T4A44 000:635.734 JLINK_WriteReg(R7, 0x00000000)
T4A44 000:635.745 - 0.015ms returns 0
T4A44 000:635.757 JLINK_WriteReg(R8, 0x00000000)
T4A44 000:635.767 - 0.015ms returns 0
T4A44 000:635.779 JLINK_WriteReg(R9, 0x2000024C)
T4A44 000:635.789 - 0.015ms returns 0
T4A44 000:635.807 JLINK_WriteReg(R10, 0x00000000)
T4A44 000:635.822 - 0.021ms returns 0
T4A44 000:635.837 JLINK_WriteReg(R11, 0x00000000)
T4A44 000:635.848 - 0.015ms returns 0
T4A44 000:635.860 JLINK_WriteReg(R12, 0x00000000)
T4A44 000:635.870 - 0.015ms returns 0
T4A44 000:635.882 JLINK_WriteReg(R13 (SP), 0x20008000)
T4A44 000:635.893 - 0.016ms returns 0
T4A44 000:635.905 JLINK_WriteReg(R14, 0x20000001)
T4A44 000:635.916 - 0.015ms returns 0
T4A44 000:635.927 JLINK_WriteReg(R15 (PC), 0x2000014C)
T4A44 000:635.938 - 0.015ms returns 0
T4A44 000:635.950 JLINK_WriteReg(XPSR, 0x01000000)
T4A44 000:635.960 - 0.016ms returns 0
T4A44 000:635.973 JLINK_WriteReg(MSP, 0x20008000)
T4A44 000:635.983 - 0.015ms returns 0
T4A44 000:635.995 JLINK_WriteReg(PSP, 0x20008000)
T4A44 000:636.006 - 0.015ms returns 0
T4A44 000:636.017 JLINK_WriteReg(CFBP, 0x00000000)
T4A44 000:636.028 - 0.015ms returns 0
T4A44 000:636.040 JLINK_SetBPEx(Addr = 0x20000000, Type = 0xFFFFFFF2)
T4A44 000:636.053 - 0.018ms returns 0x00000006
T4A44 000:636.065 JLINK_Go()
T4A44 000:636.082   CPU_WriteMem(4 bytes @ 0xE0002000)
T4A44 000:636.808   CPU_ReadMem(4 bytes @ 0xE0001000)
T4A44 000:642.651 - 6.616ms
T4A44 000:642.713 JLINK_IsHalted()
T4A44 000:643.271 - 0.606ms returns FALSE
T4A44 000:643.347 JLINK_HasError()
T4A44 000:648.485 JLINK_IsHalted()
T4A44 000:649.150 - 0.688ms returns FALSE
T4A44 000:649.183 JLINK_HasError()
T4A44 000:650.833 JLINK_IsHalted()
T4A44 000:655.238 - 4.433ms returns TRUE
T4A44 000:655.279 JLINK_ReadReg(R15 (PC))
T4A44 000:655.294 - 0.020ms returns 0x20000000
T4A44 000:655.306 JLINK_ClrBPEx(BPHandle = 0x00000006)
T4A44 000:655.317 - 0.016ms returns 0x00
T4A44 000:655.329 JLINK_ReadReg(R0)
T4A44 000:655.339 - 0.014ms returns 0x00000000
T4A44 000:656.391 JLINK_WriteMem(0x20000250, 0x1B0 Bytes, ...)
T4A44 000:656.426   Data:  80 B5 84 B0 03 90 8D F8 0B 10 03 98 40 F2 F8 21 ...
T4A44 000:656.458   CPU_WriteMem(432 bytes @ 0x20000250)
T4A44 000:660.315 - 3.996ms returns 0x1B0
T4A44 000:660.403 JLINK_WriteMem(0x20000400, 0x250 Bytes, ...)
T4A44 000:660.537   Data:  83 B0 02 90 01 91 00 92 00 98 90 ED 00 2A 90 ED ...
T4A44 000:660.568   CPU_WriteMem(592 bytes @ 0x20000400)
T4A44 000:665.484 - 5.145ms returns 0x250
T4A44 000:665.583 JLINK_HasError()
T4A44 000:665.639 JLINK_WriteReg(R0, 0x08000800)
T4A44 000:665.656 - 0.021ms returns 0
T4A44 000:665.668 JLINK_WriteReg(R1, 0x00000400)
T4A44 000:665.677 - 0.014ms returns 0
T4A44 000:665.688 JLINK_WriteReg(R2, 0x20000250)
T4A44 000:665.698 - 0.013ms returns 0
T4A44 000:665.708 JLINK_WriteReg(R3, 0x00000000)
T4A44 000:665.717 - 0.013ms returns 0
T4A44 000:665.728 JLINK_WriteReg(R4, 0x00000000)
T4A44 000:665.737 - 0.013ms returns 0
T4A44 000:665.747 JLINK_WriteReg(R5, 0x00000000)
T4A44 000:665.757 - 0.013ms returns 0
T4A44 000:665.768 JLINK_WriteReg(R6, 0x00000000)
T4A44 000:665.777 - 0.013ms returns 0
T4A44 000:665.787 JLINK_WriteReg(R7, 0x00000000)
T4A44 000:665.796 - 0.013ms returns 0
T4A44 000:665.807 JLINK_WriteReg(R8, 0x00000000)
T4A44 000:665.816 - 0.013ms returns 0
T4A44 000:665.826 JLINK_WriteReg(R9, 0x2000024C)
T4A44 000:665.835 - 0.013ms returns 0
T4A44 000:665.846 JLINK_WriteReg(R10, 0x00000000)
T4A44 000:665.855 - 0.013ms returns 0
T4A44 000:665.865 JLINK_WriteReg(R11, 0x00000000)
T4A44 000:665.874 - 0.014ms returns 0
T4A44 000:665.885 JLINK_WriteReg(R12, 0x00000000)
T4A44 000:665.894 - 0.013ms returns 0
T4A44 000:665.905 JLINK_WriteReg(R13 (SP), 0x20008000)
T4A44 000:665.915 - 0.014ms returns 0
T4A44 000:665.925 JLINK_WriteReg(R14, 0x20000001)
T4A44 000:665.935 - 0.013ms returns 0
T4A44 000:665.945 JLINK_WriteReg(R15 (PC), 0x2000014C)
T4A44 000:665.955 - 0.013ms returns 0
T4A44 000:665.965 JLINK_WriteReg(XPSR, 0x01000000)
T4A44 000:665.974 - 0.013ms returns 0
T4A44 000:665.985 JLINK_WriteReg(MSP, 0x20008000)
T4A44 000:665.994 - 0.013ms returns 0
T4A44 000:666.004 JLINK_WriteReg(PSP, 0x20008000)
T4A44 000:666.014 - 0.013ms returns 0
T4A44 000:666.024 JLINK_WriteReg(CFBP, 0x00000000)
T4A44 000:666.033 - 0.013ms returns 0
T4A44 000:666.044 JLINK_SetBPEx(Addr = 0x20000000, Type = 0xFFFFFFF2)
T4A44 000:666.055 - 0.015ms returns 0x00000007
T4A44 000:666.066 JLINK_Go()
T4A44 000:666.083   CPU_WriteMem(4 bytes @ 0xE0002000)
T4A44 000:666.706   CPU_ReadMem(4 bytes @ 0xE0001000)
T4A44 000:671.429 - 5.387ms
T4A44 000:671.478 JLINK_IsHalted()
T4A44 000:672.070 - 0.663ms returns FALSE
T4A44 000:672.169 JLINK_HasError()
T4A44 000:677.620 JLINK_IsHalted()
T4A44 000:678.233 - 0.639ms returns FALSE
T4A44 000:678.272 JLINK_HasError()
T4A44 000:687.522 JLINK_IsHalted()
T4A44 000:691.716 - 4.231ms returns TRUE
T4A44 000:691.759 JLINK_ReadReg(R15 (PC))
T4A44 000:691.766 - 0.009ms returns 0x20000000
T4A44 000:691.774 JLINK_ClrBPEx(BPHandle = 0x00000007)
T4A44 000:691.780 - 0.008ms returns 0x00
T4A44 000:691.786 JLINK_ReadReg(R0)
T4A44 000:691.791 - 0.007ms returns 0x00000000
T4A44 000:692.235 JLINK_WriteMem(0x20000250, 0x1B0 Bytes, ...)
T4A44 000:692.267   Data:  10 1A B8 EE C0 0A 90 ED 00 1A 20 EE 01 0A 11 98 ...
T4A44 000:692.283   CPU_WriteMem(432 bytes @ 0x20000250)
T4A44 000:696.046 - 3.833ms returns 0x1B0
T4A44 000:696.078 JLINK_WriteMem(0x20000400, 0x250 Bytes, ...)
T4A44 000:696.086   Data:  10 00 FF E7 9D F8 10 00 02 28 3F DC FF E7 11 98 ...
T4A44 000:696.107   CPU_WriteMem(592 bytes @ 0x20000400)
T4A44 000:701.028 - 5.084ms returns 0x250
T4A44 000:701.199 JLINK_HasError()
T4A44 000:701.282 JLINK_WriteReg(R0, 0x08000C00)
T4A44 000:701.300 - 0.023ms returns 0
T4A44 000:701.313 JLINK_WriteReg(R1, 0x00000400)
T4A44 000:701.323 - 0.014ms returns 0
T4A44 000:701.333 JLINK_WriteReg(R2, 0x20000250)
T4A44 000:701.343 - 0.013ms returns 0
T4A44 000:701.353 JLINK_WriteReg(R3, 0x00000000)
T4A44 000:701.362 - 0.013ms returns 0
T4A44 000:701.373 JLINK_WriteReg(R4, 0x00000000)
T4A44 000:701.382 - 0.013ms returns 0
T4A44 000:701.392 JLINK_WriteReg(R5, 0x00000000)
T4A44 000:701.401 - 0.013ms returns 0
T4A44 000:701.412 JLINK_WriteReg(R6, 0x00000000)
T4A44 000:701.421 - 0.013ms returns 0
T4A44 000:701.431 JLINK_WriteReg(R7, 0x00000000)
T4A44 000:701.441 - 0.014ms returns 0
T4A44 000:701.451 JLINK_WriteReg(R8, 0x00000000)
T4A44 000:701.461 - 0.013ms returns 0
T4A44 000:701.471 JLINK_WriteReg(R9, 0x2000024C)
T4A44 000:701.480 - 0.013ms returns 0
T4A44 000:701.490 JLINK_WriteReg(R10, 0x00000000)
T4A44 000:701.500 - 0.013ms returns 0
T4A44 000:701.510 JLINK_WriteReg(R11, 0x00000000)
T4A44 000:701.519 - 0.013ms returns 0
T4A44 000:701.529 JLINK_WriteReg(R12, 0x00000000)
T4A44 000:701.539 - 0.013ms returns 0
T4A44 000:701.549 JLINK_WriteReg(R13 (SP), 0x20008000)
T4A44 000:701.569 - 0.024ms returns 0
T4A44 000:701.580 JLINK_WriteReg(R14, 0x20000001)
T4A44 000:701.589 - 0.014ms returns 0
T4A44 000:701.600 JLINK_WriteReg(R15 (PC), 0x2000014C)
T4A44 000:701.609 - 0.013ms returns 0
T4A44 000:701.620 JLINK_WriteReg(XPSR, 0x01000000)
T4A44 000:701.629 - 0.013ms returns 0
T4A44 000:701.639 JLINK_WriteReg(MSP, 0x20008000)
T4A44 000:701.648 - 0.013ms returns 0
T4A44 000:701.659 JLINK_WriteReg(PSP, 0x20008000)
T4A44 000:701.668 - 0.013ms returns 0
T4A44 000:701.678 JLINK_WriteReg(CFBP, 0x00000000)
T4A44 000:701.688 - 0.013ms returns 0
T4A44 000:701.698 JLINK_SetBPEx(Addr = 0x20000000, Type = 0xFFFFFFF2)
T4A44 000:701.710 - 0.016ms returns 0x00000008
T4A44 000:701.721 JLINK_Go()
T4A44 000:701.737   CPU_WriteMem(4 bytes @ 0xE0002000)
T4A44 000:702.394   CPU_ReadMem(4 bytes @ 0xE0001000)
T4A44 000:707.429 - 5.748ms
T4A44 000:707.484 JLINK_IsHalted()
T4A44 000:708.128 - 0.675ms returns FALSE
T4A44 000:708.174 JLINK_HasError()
T4A44 000:712.792 JLINK_IsHalted()
T4A44 000:713.457 - 0.694ms returns FALSE
T4A44 000:713.501 JLINK_HasError()
T4A44 000:716.408 JLINK_IsHalted()
T4A44 000:720.379 - 4.004ms returns TRUE
T4A44 000:720.427 JLINK_ReadReg(R15 (PC))
T4A44 000:720.444 - 0.022ms returns 0x20000000
T4A44 000:720.458 JLINK_ClrBPEx(BPHandle = 0x00000008)
T4A44 000:720.470 - 0.017ms returns 0x00
T4A44 000:720.484 JLINK_ReadReg(R0)
T4A44 000:720.495 - 0.017ms returns 0x00000000
T4A44 000:721.704 JLINK_WriteMem(0x20000250, 0x1B0 Bytes, ...)
T4A44 000:721.738   Data:  00 41 08 88 01 30 08 80 FF E7 40 F6 DC 00 C2 F2 ...
T4A44 000:721.776   CPU_WriteMem(432 bytes @ 0x20000250)
T4A44 000:725.617 - 3.948ms returns 0x1B0
T4A44 000:725.667 JLINK_WriteMem(0x20000400, 0x250 Bytes, ...)
T4A44 000:725.681   Data:  01 EE 02 0A 81 ED 0C 0A 9D F8 3E 10 9D F8 3F 20 ...
T4A44 000:725.714   CPU_WriteMem(592 bytes @ 0x20000400)
T4A44 000:730.671 - 5.041ms returns 0x250
T4A44 000:730.737 JLINK_HasError()
T4A44 000:730.753 JLINK_WriteReg(R0, 0x08001000)
T4A44 000:730.771 - 0.023ms returns 0
T4A44 000:730.784 JLINK_WriteReg(R1, 0x00000400)
T4A44 000:730.794 - 0.015ms returns 0
T4A44 000:730.884 JLINK_WriteReg(R2, 0x20000250)
T4A44 000:730.897 - 0.018ms returns 0
T4A44 000:730.910 JLINK_WriteReg(R3, 0x00000000)
T4A44 000:730.920 - 0.014ms returns 0
T4A44 000:730.931 JLINK_WriteReg(R4, 0x00000000)
T4A44 000:730.941 - 0.014ms returns 0
T4A44 000:730.952 JLINK_WriteReg(R5, 0x00000000)
T4A44 000:730.961 - 0.014ms returns 0
T4A44 000:730.972 JLINK_WriteReg(R6, 0x00000000)
T4A44 000:730.982 - 0.014ms returns 0
T4A44 000:730.993 JLINK_WriteReg(R7, 0x00000000)
T4A44 000:731.003 - 0.014ms returns 0
T4A44 000:731.014 JLINK_WriteReg(R8, 0x00000000)
T4A44 000:731.024 - 0.014ms returns 0
T4A44 000:731.035 JLINK_WriteReg(R9, 0x2000024C)
T4A44 000:731.052 - 0.026ms returns 0
T4A44 000:731.068 JLINK_WriteReg(R10, 0x00000000)
T4A44 000:731.078 - 0.014ms returns 0
T4A44 000:731.089 JLINK_WriteReg(R11, 0x00000000)
T4A44 000:731.098 - 0.014ms returns 0
T4A44 000:731.109 JLINK_WriteReg(R12, 0x00000000)
T4A44 000:731.119 - 0.014ms returns 0
T4A44 000:731.130 JLINK_WriteReg(R13 (SP), 0x20008000)
T4A44 000:731.141 - 0.015ms returns 0
T4A44 000:731.152 JLINK_WriteReg(R14, 0x20000001)
T4A44 000:731.162 - 0.014ms returns 0
T4A44 000:731.173 JLINK_WriteReg(R15 (PC), 0x2000014C)
T4A44 000:731.183 - 0.015ms returns 0
T4A44 000:731.194 JLINK_WriteReg(XPSR, 0x01000000)
T4A44 000:731.204 - 0.014ms returns 0
T4A44 000:731.215 JLINK_WriteReg(MSP, 0x20008000)
T4A44 000:731.225 - 0.014ms returns 0
T4A44 000:731.236 JLINK_WriteReg(PSP, 0x20008000)
T4A44 000:731.252 - 0.022ms returns 0
T4A44 000:731.267 JLINK_WriteReg(CFBP, 0x00000000)
T4A44 000:731.278 - 0.015ms returns 0
T4A44 000:731.290 JLINK_SetBPEx(Addr = 0x20000000, Type = 0xFFFFFFF2)
T4A44 000:731.302 - 0.017ms returns 0x00000009
T4A44 000:731.314 JLINK_Go()
T4A44 000:731.331   CPU_WriteMem(4 bytes @ 0xE0002000)
T4A44 000:732.011   CPU_ReadMem(4 bytes @ 0xE0001000)
T4A44 000:736.958 - 5.675ms
T4A44 000:737.004 JLINK_IsHalted()
T4A44 000:737.638 - 0.663ms returns FALSE
T4A44 000:737.682 JLINK_HasError()
T4A44 000:744.331 JLINK_IsHalted()
T4A44 000:745.038 - 0.737ms returns FALSE
T4A44 000:745.079 JLINK_HasError()
T4A44 000:746.838 JLINK_IsHalted()
T4A44 000:751.248 - 4.440ms returns TRUE
T4A44 000:751.291 JLINK_ReadReg(R15 (PC))
T4A44 000:751.307 - 0.020ms returns 0x20000000
T4A44 000:751.319 JLINK_ClrBPEx(BPHandle = 0x00000009)
T4A44 000:751.330 - 0.015ms returns 0x00
T4A44 000:751.342 JLINK_ReadReg(R0)
T4A44 000:751.352 - 0.014ms returns 0x00000000
T4A44 000:752.171 JLINK_WriteMem(0x20000250, 0x1B0 Bytes, ...)
T4A44 000:752.194   Data:  C2 F2 00 40 90 ED 00 0A B5 EE 40 0A F1 EE 10 FA ...
T4A44 000:752.224   CPU_WriteMem(432 bytes @ 0x20000250)
T4A44 000:755.946 - 3.807ms returns 0x1B0
T4A44 000:755.992 JLINK_WriteMem(0x20000400, 0x250 Bytes, ...)
T4A44 000:756.056   Data:  9F ED 4F 2A 01 EE 02 0A 80 ED 03 0A FF E7 41 F2 ...
T4A44 000:756.092   CPU_WriteMem(592 bytes @ 0x20000400)
T4A44 000:760.909 - 4.949ms returns 0x250
T4A44 000:760.968 JLINK_HasError()
T4A44 000:761.066 JLINK_WriteReg(R0, 0x08001400)
T4A44 000:761.092 - 0.030ms returns 0
T4A44 000:761.104 JLINK_WriteReg(R1, 0x00000400)
T4A44 000:761.115 - 0.015ms returns 0
T4A44 000:761.126 JLINK_WriteReg(R2, 0x20000250)
T4A44 000:761.135 - 0.014ms returns 0
T4A44 000:761.146 JLINK_WriteReg(R3, 0x00000000)
T4A44 000:761.156 - 0.014ms returns 0
T4A44 000:761.167 JLINK_WriteReg(R4, 0x00000000)
T4A44 000:761.178 - 0.015ms returns 0
T4A44 000:761.189 JLINK_WriteReg(R5, 0x00000000)
T4A44 000:761.199 - 0.014ms returns 0
T4A44 000:761.210 JLINK_WriteReg(R6, 0x00000000)
T4A44 000:761.219 - 0.014ms returns 0
T4A44 000:761.230 JLINK_WriteReg(R7, 0x00000000)
T4A44 000:761.240 - 0.014ms returns 0
T4A44 000:761.251 JLINK_WriteReg(R8, 0x00000000)
T4A44 000:761.261 - 0.014ms returns 0
T4A44 000:761.272 JLINK_WriteReg(R9, 0x2000024C)
T4A44 000:761.282 - 0.014ms returns 0
T4A44 000:761.293 JLINK_WriteReg(R10, 0x00000000)
T4A44 000:761.303 - 0.014ms returns 0
T4A44 000:761.314 JLINK_WriteReg(R11, 0x00000000)
T4A44 000:761.324 - 0.014ms returns 0
T4A44 000:761.335 JLINK_WriteReg(R12, 0x00000000)
T4A44 000:761.344 - 0.014ms returns 0
T4A44 000:761.355 JLINK_WriteReg(R13 (SP), 0x20008000)
T4A44 000:761.366 - 0.015ms returns 0
T4A44 000:761.377 JLINK_WriteReg(R14, 0x20000001)
T4A44 000:761.387 - 0.014ms returns 0
T4A44 000:761.398 JLINK_WriteReg(R15 (PC), 0x2000014C)
T4A44 000:761.408 - 0.014ms returns 0
T4A44 000:761.419 JLINK_WriteReg(XPSR, 0x01000000)
T4A44 000:761.429 - 0.014ms returns 0
T4A44 000:761.440 JLINK_WriteReg(MSP, 0x20008000)
T4A44 000:761.450 - 0.014ms returns 0
T4A44 000:761.461 JLINK_WriteReg(PSP, 0x20008000)
T4A44 000:761.471 - 0.014ms returns 0
T4A44 000:761.482 JLINK_WriteReg(CFBP, 0x00000000)
T4A44 000:761.503 - 0.026ms returns 0
T4A44 000:761.515 JLINK_SetBPEx(Addr = 0x20000000, Type = 0xFFFFFFF2)
T4A44 000:761.528 - 0.018ms returns 0x0000000A
T4A44 000:761.540 JLINK_Go()
T4A44 000:761.557   CPU_WriteMem(4 bytes @ 0xE0002000)
T4A44 000:762.274   CPU_ReadMem(4 bytes @ 0xE0001000)
T4A44 000:767.339 - 5.826ms
T4A44 000:767.379 JLINK_IsHalted()
T4A44 000:767.984 - 0.636ms returns FALSE
T4A44 000:768.033 JLINK_HasError()
T4A44 000:782.312 JLINK_IsHalted()
T4A44 000:786.463 - 4.178ms returns TRUE
T4A44 000:786.501 JLINK_ReadReg(R15 (PC))
T4A44 000:786.516 - 0.019ms returns 0x20000000
T4A44 000:786.527 JLINK_ClrBPEx(BPHandle = 0x0000000A)
T4A44 000:786.538 - 0.015ms returns 0x00
T4A44 000:786.549 JLINK_ReadReg(R0)
T4A44 000:786.558 - 0.013ms returns 0x00000000
T4A44 000:787.537 JLINK_WriteMem(0x20000250, 0x1B0 Bytes, ...)
T4A44 000:787.563   Data:  EC 32 C2 F2 00 42 FF F7 8B FF 40 F2 60 40 C2 F2 ...
T4A44 000:787.594   CPU_WriteMem(432 bytes @ 0x20000250)
T4A44 000:791.420 - 3.926ms returns 0x1B0
T4A44 000:791.481 JLINK_WriteMem(0x20000400, 0x250 Bytes, ...)
T4A44 000:791.494   Data:  61 0A B0 EE 61 1A 12 F0 2F FD 09 98 00 68 12 F0 ...
T4A44 000:791.531   CPU_WriteMem(592 bytes @ 0x20000400)
T4A44 000:796.523 - 5.070ms returns 0x250
T4A44 000:796.566 JLINK_HasError()
T4A44 000:796.580 JLINK_WriteReg(R0, 0x08001800)
T4A44 000:796.597 - 0.022ms returns 0
T4A44 000:796.658 JLINK_WriteReg(R1, 0x00000400)
T4A44 000:796.669 - 0.015ms returns 0
T4A44 000:796.681 JLINK_WriteReg(R2, 0x20000250)
T4A44 000:796.690 - 0.013ms returns 0
T4A44 000:796.701 JLINK_WriteReg(R3, 0x00000000)
T4A44 000:796.716 - 0.021ms returns 0
T4A44 000:796.730 JLINK_WriteReg(R4, 0x00000000)
T4A44 000:796.742 - 0.016ms returns 0
T4A44 000:796.753 JLINK_WriteReg(R5, 0x00000000)
T4A44 000:796.762 - 0.013ms returns 0
T4A44 000:796.772 JLINK_WriteReg(R6, 0x00000000)
T4A44 000:796.781 - 0.013ms returns 0
T4A44 000:796.792 JLINK_WriteReg(R7, 0x00000000)
T4A44 000:796.801 - 0.013ms returns 0
T4A44 000:796.812 JLINK_WriteReg(R8, 0x00000000)
T4A44 000:796.821 - 0.013ms returns 0
T4A44 000:796.832 JLINK_WriteReg(R9, 0x2000024C)
T4A44 000:796.841 - 0.013ms returns 0
T4A44 000:796.851 JLINK_WriteReg(R10, 0x00000000)
T4A44 000:796.861 - 0.013ms returns 0
T4A44 000:796.871 JLINK_WriteReg(R11, 0x00000000)
T4A44 000:796.880 - 0.014ms returns 0
T4A44 000:796.891 JLINK_WriteReg(R12, 0x00000000)
T4A44 000:796.900 - 0.013ms returns 0
T4A44 000:796.910 JLINK_WriteReg(R13 (SP), 0x20008000)
T4A44 000:796.921 - 0.015ms returns 0
T4A44 000:796.932 JLINK_WriteReg(R14, 0x20000001)
T4A44 000:796.941 - 0.014ms returns 0
T4A44 000:796.952 JLINK_WriteReg(R15 (PC), 0x2000014C)
T4A44 000:796.962 - 0.013ms returns 0
T4A44 000:796.972 JLINK_WriteReg(XPSR, 0x01000000)
T4A44 000:796.981 - 0.013ms returns 0
T4A44 000:796.992 JLINK_WriteReg(MSP, 0x20008000)
T4A44 000:797.001 - 0.013ms returns 0
T4A44 000:797.011 JLINK_WriteReg(PSP, 0x20008000)
T4A44 000:797.021 - 0.013ms returns 0
T4A44 000:797.031 JLINK_WriteReg(CFBP, 0x00000000)
T4A44 000:797.040 - 0.013ms returns 0
T4A44 000:797.051 JLINK_SetBPEx(Addr = 0x20000000, Type = 0xFFFFFFF2)
T4A44 000:797.064 - 0.017ms returns 0x0000000B
T4A44 000:797.075 JLINK_Go()
T4A44 000:797.091   CPU_WriteMem(4 bytes @ 0xE0002000)
T4A44 000:797.741   CPU_ReadMem(4 bytes @ 0xE0001000)
T4A44 000:802.640 - 5.601ms
T4A44 000:802.690 JLINK_IsHalted()
T4A44 000:803.339 - 0.681ms returns FALSE
T4A44 000:803.385 JLINK_HasError()
T4A44 000:805.596 JLINK_IsHalted()
T4A44 000:806.246 - 0.678ms returns FALSE
T4A44 000:806.289 JLINK_HasError()
T4A44 000:808.236 JLINK_IsHalted()
T4A44 000:809.004 - 0.817ms returns FALSE
T4A44 000:809.067 JLINK_HasError()
T4A44 000:810.903 JLINK_IsHalted()
T4A44 000:815.187 - 4.323ms returns TRUE
T4A44 000:815.266 JLINK_ReadReg(R15 (PC))
T4A44 000:815.284 - 0.022ms returns 0x20000000
T4A44 000:815.296 JLINK_ClrBPEx(BPHandle = 0x0000000B)
T4A44 000:815.308 - 0.016ms returns 0x00
T4A44 000:815.320 JLINK_ReadReg(R0)
T4A44 000:815.339 - 0.029ms returns 0x00000000
T4A44 000:816.356 JLINK_WriteMem(0x20000250, 0x1B0 Bytes, ...)
T4A44 000:816.381   Data:  04 98 C0 68 05 90 FF E7 9D ED 05 0A 06 B0 70 47 ...
T4A44 000:816.414   CPU_WriteMem(432 bytes @ 0x20000250)
T4A44 000:820.214 - 3.908ms returns 0x1B0
T4A44 000:820.285 JLINK_WriteMem(0x20000400, 0x250 Bytes, ...)
T4A44 000:820.300   Data:  28 22 C4 F2 02 02 91 42 00 90 00 F0 98 80 FF E7 ...
T4A44 000:820.342   CPU_WriteMem(592 bytes @ 0x20000400)
T4A44 000:825.210 - 4.958ms returns 0x250
T4A44 000:825.260 JLINK_HasError()
T4A44 000:825.278 JLINK_WriteReg(R0, 0x08001C00)
T4A44 000:825.299 - 0.026ms returns 0
T4A44 000:825.312 JLINK_WriteReg(R1, 0x00000400)
T4A44 000:825.324 - 0.023ms returns 0
T4A44 000:825.343 JLINK_WriteReg(R2, 0x20000250)
T4A44 000:825.356 - 0.018ms returns 0
T4A44 000:825.369 JLINK_WriteReg(R3, 0x00000000)
T4A44 000:825.380 - 0.016ms returns 0
T4A44 000:825.393 JLINK_WriteReg(R4, 0x00000000)
T4A44 000:825.404 - 0.016ms returns 0
T4A44 000:825.417 JLINK_WriteReg(R5, 0x00000000)
T4A44 000:825.428 - 0.016ms returns 0
T4A44 000:825.441 JLINK_WriteReg(R6, 0x00000000)
T4A44 000:825.452 - 0.016ms returns 0
T4A44 000:825.465 JLINK_WriteReg(R7, 0x00000000)
T4A44 000:825.476 - 0.016ms returns 0
T4A44 000:825.495 JLINK_WriteReg(R8, 0x00000000)
T4A44 000:825.507 - 0.017ms returns 0
T4A44 000:825.520 JLINK_WriteReg(R9, 0x2000024C)
T4A44 000:825.532 - 0.016ms returns 0
T4A44 000:825.544 JLINK_WriteReg(R10, 0x00000000)
T4A44 000:825.556 - 0.017ms returns 0
T4A44 000:825.569 JLINK_WriteReg(R11, 0x00000000)
T4A44 000:825.580 - 0.016ms returns 0
T4A44 000:825.593 JLINK_WriteReg(R12, 0x00000000)
T4A44 000:825.604 - 0.016ms returns 0
T4A44 000:825.617 JLINK_WriteReg(R13 (SP), 0x20008000)
T4A44 000:825.631 - 0.018ms returns 0
T4A44 000:825.643 JLINK_WriteReg(R14, 0x20000001)
T4A44 000:825.655 - 0.016ms returns 0
T4A44 000:825.668 JLINK_WriteReg(R15 (PC), 0x2000014C)
T4A44 000:825.679 - 0.017ms returns 0
T4A44 000:825.692 JLINK_WriteReg(XPSR, 0x01000000)
T4A44 000:825.704 - 0.016ms returns 0
T4A44 000:825.717 JLINK_WriteReg(MSP, 0x20008000)
T4A44 000:825.728 - 0.016ms returns 0
T4A44 000:825.741 JLINK_WriteReg(PSP, 0x20008000)
T4A44 000:825.752 - 0.016ms returns 0
T4A44 000:825.771 JLINK_WriteReg(CFBP, 0x00000000)
T4A44 000:825.782 - 0.055ms returns 0
T4A44 000:825.835 JLINK_SetBPEx(Addr = 0x20000000, Type = 0xFFFFFFF2)
T4A44 000:825.849 - 0.020ms returns 0x0000000C
T4A44 000:825.863 JLINK_Go()
T4A44 000:825.883   CPU_WriteMem(4 bytes @ 0xE0002000)
T4A44 000:826.482   CPU_ReadMem(4 bytes @ 0xE0001000)
T4A44 000:831.292 - 5.455ms
T4A44 000:831.336 JLINK_IsHalted()
T4A44 000:831.965 - 0.657ms returns FALSE
T4A44 000:832.005 JLINK_HasError()
T4A44 000:845.608 JLINK_IsHalted()
T4A44 000:849.599 - 4.011ms returns TRUE
T4A44 000:849.627 JLINK_ReadReg(R15 (PC))
T4A44 000:849.635 - 0.011ms returns 0x20000000
T4A44 000:849.643 JLINK_ClrBPEx(BPHandle = 0x0000000C)
T4A44 000:849.649 - 0.009ms returns 0x00
T4A44 000:849.657 JLINK_ReadReg(R0)
T4A44 000:849.662 - 0.008ms returns 0x00000000
T4A44 000:850.190 JLINK_WriteMem(0x20000250, 0x1B0 Bytes, ...)
T4A44 000:850.202   Data:  0C D0 FF E7 03 98 00 68 4A F6 6C 31 CA F2 FD 71 ...
T4A44 000:850.220   CPU_WriteMem(432 bytes @ 0x20000250)
T4A44 000:854.012 - 3.842ms returns 0x1B0
T4A44 000:854.043 JLINK_WriteMem(0x20000400, 0x250 Bytes, ...)
T4A44 000:854.050   Data:  01 99 45 F6 FC 00 C5 F6 02 00 00 EB 81 00 02 99 ...
T4A44 000:854.071   CPU_WriteMem(592 bytes @ 0x20000400)
T4A44 000:859.130 - 5.120ms returns 0x250
T4A44 000:859.173 JLINK_HasError()
T4A44 000:859.183 JLINK_WriteReg(R0, 0x08002000)
T4A44 000:859.194 - 0.015ms returns 0
T4A44 000:859.202 JLINK_WriteReg(R1, 0x00000400)
T4A44 000:859.209 - 0.010ms returns 0
T4A44 000:859.217 JLINK_WriteReg(R2, 0x20000250)
T4A44 000:859.223 - 0.009ms returns 0
T4A44 000:859.231 JLINK_WriteReg(R3, 0x00000000)
T4A44 000:859.237 - 0.009ms returns 0
T4A44 000:859.245 JLINK_WriteReg(R4, 0x00000000)
T4A44 000:859.251 - 0.009ms returns 0
T4A44 000:859.264 JLINK_WriteReg(R5, 0x00000000)
T4A44 000:859.273 - 0.013ms returns 0
T4A44 000:859.281 JLINK_WriteReg(R6, 0x00000000)
T4A44 000:859.287 - 0.009ms returns 0
T4A44 000:859.295 JLINK_WriteReg(R7, 0x00000000)
T4A44 000:859.301 - 0.009ms returns 0
T4A44 000:859.308 JLINK_WriteReg(R8, 0x00000000)
T4A44 000:859.315 - 0.009ms returns 0
T4A44 000:859.322 JLINK_WriteReg(R9, 0x2000024C)
T4A44 000:859.329 - 0.039ms returns 0
T4A44 000:859.366 JLINK_WriteReg(R10, 0x00000000)
T4A44 000:859.373 - 0.009ms returns 0
T4A44 000:859.381 JLINK_WriteReg(R11, 0x00000000)
T4A44 000:859.387 - 0.010ms returns 0
T4A44 000:859.395 JLINK_WriteReg(R12, 0x00000000)
T4A44 000:859.401 - 0.009ms returns 0
T4A44 000:859.409 JLINK_WriteReg(R13 (SP), 0x20008000)
T4A44 000:859.416 - 0.010ms returns 0
T4A44 000:859.424 JLINK_WriteReg(R14, 0x20000001)
T4A44 000:859.430 - 0.009ms returns 0
T4A44 000:859.438 JLINK_WriteReg(R15 (PC), 0x2000014C)
T4A44 000:859.445 - 0.009ms returns 0
T4A44 000:859.452 JLINK_WriteReg(XPSR, 0x01000000)
T4A44 000:859.459 - 0.009ms returns 0
T4A44 000:859.466 JLINK_WriteReg(MSP, 0x20008000)
T4A44 000:859.472 - 0.009ms returns 0
T4A44 000:859.480 JLINK_WriteReg(PSP, 0x20008000)
T4A44 000:859.487 - 0.009ms returns 0
T4A44 000:859.494 JLINK_WriteReg(CFBP, 0x00000000)
T4A44 000:859.500 - 0.009ms returns 0
T4A44 000:859.508 JLINK_SetBPEx(Addr = 0x20000000, Type = 0xFFFFFFF2)
T4A44 000:859.517 - 0.011ms returns 0x0000000D
T4A44 000:859.524 JLINK_Go()
T4A44 000:859.535   CPU_WriteMem(4 bytes @ 0xE0002000)
T4A44 000:860.085   CPU_ReadMem(4 bytes @ 0xE0001000)
T4A44 000:864.893 - 5.399ms
T4A44 000:864.936 JLINK_IsHalted()
T4A44 000:865.541 - 0.631ms returns FALSE
T4A44 000:865.602 JLINK_HasError()
T4A44 000:872.192 JLINK_IsHalted()
T4A44 000:876.395 - 4.227ms returns TRUE
T4A44 000:876.429 JLINK_ReadReg(R15 (PC))
